hour, t(sec), V1, VAngle1, V2, VAngle2, V3, VAngle3, I1, IAngle1, I2, IAngle2, I3, IAngle3
0, 60.00000, 251.901, -29.9977, 251.935, -150.011, 252.019, 89.9977, 3.99135E-010, -42.4142, 0.450297, 11.8091, 1.18444E-010, -47.4896
0, 120.00000, 251.904, -29.9963, 251.921, -150.012, 252.027, 89.9965, 4.37587E-010, -47.0214, 0.450094, 11.7943, 8.17534E-011, -20.8545
0, 180.00000, 251.87, -29.9982, 251.934, -150.013, 252.009, 89.9993, 4.23606E-010, -47.6105, 0.450169, 11.7901, 1.11063E-010, -31.6075
0, 240.00000, 251.82, -30.0033, 251.956, -150.015, 251.967, 90.0036, 4.25768E-010, -40.4951, 0.450237, 11.7878, 8.51629E-011, -19.9831
0, 300.00000, 251.812, -30.0115, 251.959, -150.009, 251.859, 90.0045, 3.83371E-010, -46.1535, 0.450241, 11.8034, 9.54926E-011, 17.7447
0, 360.00000, 251.859, -30.0115, 251.918, -150.003, 251.831, 89.9988, 3.99135E-010, -42.4142, 0.450051, 11.8106, 8.17534E-011, -20.8545
0, 420.00000, 251.837, -30.0135, 251.926, -150.004, 251.818, 90.0006, 4.41265E-010, -43.8309, 0.450147, 11.7995, 8.00355E-011, 0
0, 480.00000, 251.78, -30.0158, 251.945, -150.007, 251.795, 90.0054, 4.37587E-010, -47.0214, 0.4502, 11.7942, 8.73115E-011, 0
0, 540.00000, 251.785, -30.0218, 251.965, -150.003, 251.732, 90.0068, 4.42579E-010, -43.6678, 0.450249, 11.8068, 7.16599E-011, -23.9625
0, 600.00000, 250.397, -29.981, 252.073, -150.14, 252.223, 90.0966, 4.56624E-010, -44.5158, 0.450382, 11.6587, 7.83645E-011, 21.8014
0, 660.00000, 251.652, -30.0252, 252.029, -150.014, 251.728, 90.0201, 4.32292E-010, -43.6361, 0.450319, 11.7994, 8.00355E-011, 0
0, 720.00000, 251.657, -30.0317, 252.051, -150.009, 251.66, 90.0213, 4.65789E-010, -43.4176, 0.450407, 11.8012, 8.73115E-011, 0
0, 780.00000, 251.688, -30.0325, 252.048, -150.006, 251.65, 90.0193, 4.40256E-010, -42.6559, 0.450342, 11.8032, 1.01928E-010, -34.8245
0, 840.00000, 251.693, -30.0382, 252.067, -150.003, 251.59, 90.0207, 4.23731E-010, -42.0421, 0.450425, 11.807, 9.82254E-011, 0
0, 900.00000, 251.691, -30.0358, 252.06, -150.004, 251.615, 90.0201, 4.57923E-010, -44.3563, 0.450344, 11.7997, 6.91216E-011, 0
0, 960.00000, 251.714, -30.0395, 252.069, -150, 251.574, 90.0193, 4.06234E-010, -38.8201, 0.450409, 11.8108, 7.27596E-011, 0
0, 1020.00000, 251.764, -30.0838, 252.19, -149.969, 251.067, 90.0203, 4.01107E-010, -40.7704, 0.450977, 11.8765, 9.31777E-011, -38.6598
0, 1080.00000, 251.764, -30.0839, 252.19, -149.969, 251.066, 90.0203, 4.22382E-010, -42.2073, 0.450599, 11.837, 5.09317E-011, 0
0, 1140.00000, 251.761, -30.0814, 252.182, -149.97, 251.093, 90.0198, 4.77813E-010, -42.0683, 0.450561, 11.8334, 7.63976E-011, 0
0, 1200.00000, 251.694, -30.0325, 252.037, -150.006, 251.641, 90.0179, 4.08625E-010, -41.2099, 0.449878, 11.7546, 9.60454E-011, -37.3039
0, 1260.00000, 251.694, -30.0323, 252.036, -150.006, 251.641, 90.0178, 4.19379E-010, -43.9456, 0.450321, 11.8, 8.51629E-011, 19.9831
0, 1320.00000, 251.694, -30.0329, 252.038, -150.005, 251.636, 90.0179, 4.02687E-010, -46.2812, 0.45033, 11.8008, 1.01863E-010, 0
0, 1380.00000, 251.636, -30.0327, 252.043, -150.01, 251.65, 90.0215, 4.25756E-010, -44.4807, 0.450345, 11.7872, 9.60454E-011, -37.3039
0, 1440.00000, 251.559, -30.0425, 252.122, -150.012, 251.579, 90.0317, 4.44284E-010, -42.179, 0.450643, 11.787, 9.89637E-011, 17.1027
0, 1500.00000, 251.575, -30.0408, 252.077, -150.011, 251.566, 90.0268, 4.24647E-010, -43.2643, 0.450342, 11.7993, 9.82254E-011, 0
0, 1560.00000, 251.6, -30.0469, 252.094, -150.005, 251.502, 90.027, 3.994E-010, -48.3231, 0.450472, 11.8072, 1.05501E-010, 0
0, 1620.00000, 251.6, -30.0468, 252.093, -150.005, 251.505, 90.0273, 3.91146E-010, -43.4926, 0.450415, 11.7997, 9.09495E-011, 0
0, 1680.00000, 251.6, -30.0467, 252.093, -150.005, 251.505, 90.0273, 4.42972E-010, -39.8357, 0.450424, 11.8005, 9.20344E-011, -18.4349
0, 1740.00000, 251.51, -30.0488, 252.119, -150.011, 251.48, 90.0342, 4.59225E-010, -44.1976, 0.450524, 11.7898, 7.83645E-011, -21.8014
0, 1800.00000, 251.519, -30.0502, 252.106, -150.009, 251.451, 90.0323, 4.10403E-010, -43.7429, 0.450441, 11.8006, 8.85906E-011, 19.179
0, 1860.00000, 251.502, -30.03, 252.052, -150.023, 251.679, 90.0273, 4.28329E-010, -45.5162, 0.450202, 11.7682, 8.00355E-011, 0
0, 1920.00000, 251.496, -30.0304, 252.065, -150.024, 251.683, 90.0287, 4.28329E-010, -45.5162, 0.450392, 11.7805, 7.27596E-011, 0
0, 1980.00000, 251.501, -30.0305, 252.065, -150.023, 251.682, 90.0284, 4.29605E-010, -45.3431, 0.450373, 11.7828, 8.85906E-011, -19.179
0, 2040.00000, 251.502, -30.0314, 252.067, -150.023, 251.672, 90.0285, 4.43535E-010, -48.9909, 0.450386, 11.7835, 1.04935E-010, -33.6901
0, 2100.00000, 251.501, -30.0303, 252.064, -150.024, 251.684, 90.0283, 4.28541E-010, -40.1792, 0.450361, 11.7812, 7.27596E-011, 0
0, 2160.00000, 251.518, -30.0287, 252.019, -150.021, 251.671, 90.0237, 4.19694E-010, -42.541, 0.450242, 11.7882, 8.51629E-011, -19.9831
0, 2220.00000, 251.474, -30.0289, 252.027, -150.025, 251.673, 90.0268, 4.08625E-010, -41.2099, 0.45032, 11.7752, 7.27596E-011, 0
0, 2280.00000, 251.472, -30.0275, 252.022, -150.026, 251.688, 90.0262, 4.18039E-010, -45.5289, 0.450276, 11.778, 7.83645E-011, -21.8014
0, 2340.00000, 251.472, -30.0274, 252.022, -150.026, 251.688, 90.0262, 4.37345E-010, -45.674, 0.450297, 11.7797, 8.17534E-011, -20.8545
0, 2400.00000, 251.405, -30.0203, 252.013, -150.035, 251.754, 90.0294, 4.45634E-010, -42.022, 0.450246, 11.7609, 8.51629E-011, -19.9831
0, 2460.00000, 251.407, -30.0215, 252.017, -150.034, 251.742, 90.0298, 4.12237E-010, -39.4495, 0.450304, 11.7725, 9.20344E-011, -18.4349
0, 2520.00000, 251.414, -30.0214, 251.999, -150.034, 251.731, 90.0281, 4.08625E-010, -41.2099, 0.450233, 11.7727, 8.36735E-011, 0
0, 2580.00000, 251.362, -30.0191, 252, -150.04, 251.759, 90.0314, 3.97694E-010, -47.0388, 0.450251, 11.7584, 9.89637E-011, -36.0274
0, 2640.00000, 251.292, -30.0215, 252.02, -150.044, 251.742, 90.0378, 4.13327E-010, -47.6754, 0.450328, 11.7547, 1.11063E-010, -31.6075
0, 2700.00000, 251.372, -30.0273, 252.032, -150.034, 251.661, 90.0338, 4.36046E-010, -44.493, 0.450357, 11.7869, 1.18444E-010, -47.4896
0, 2760.00000, 251.442, -30.0283, 252.026, -150.027, 251.643, 90.0294, 3.93793E-010, -43.1283, 0.450293, 11.7887, 1.02446E-010, -16.5044
0, 2820.00000, 251.49, -30.0302, 252.038, -150.022, 251.624, 90.0274, 3.924E-010, -46.3148, 0.450339, 11.791, 9.89637E-011, -36.0274
0, 2880.00000, 251.49, -30.0302, 252.038, -150.022, 251.624, 90.0274, 4.43897E-010, -43.5057, 0.450325, 11.7833, 9.89637E-011, -36.0274
0, 2940.00000, 251.522, -30.0363, 252.048, -150.017, 251.572, 90.0262, 4.28329E-010, -45.5162, 0.45038, 11.7956, 1.04935E-010, -33.6901
0, 3000.00000, 251.5, -30.036, 251.974, -150.014, 251.513, 90.0217, 3.95223E-010, -47.4248, 0.450168, 11.7948, 1.04935E-010, -33.6901
0, 3060.00000, 251.511, -30.0316, 251.929, -150.015, 251.538, 90.0179, 4.43535E-010, -41.0091, 0.450056, 11.7915, 1.18444E-010, -47.4896
0, 3120.00000, 251.535, -30.0267, 251.855, -150.013, 251.545, 90.0107, 4.29162E-010, -41.3915, 0.449909, 11.7965, 8.73115E-011, 0
0, 3180.00000, 251.534, -30.0252, 251.85, -150.014, 251.561, 90.0105, 4.2069E-010, -43.7737, 0.449975, 11.7909, 9.89637E-011, 17.1027
0, 3240.00000, 251.56, -30.0244, 251.792, -150.009, 251.525, 90.0041, 4.39432E-010, -41.476, 0.449843, 11.8028, 1.04935E-010, 33.6901
0, 3300.00000, 251.601, -30.0392, 251.838, -149.997, 251.369, 90.0067, 4.17021E-010, -42.8789, 0.45006, 11.8208, 1.11063E-010, -31.6075
0, 3360.00000, 251.398, -30.0375, 251.84, -150.013, 251.369, 90.0192, 3.89875E-010, -49.9206, 0.449986, 11.7751, 9.82254E-011, 0
0, 3420.00000, 251.429, -30.0391, 251.84, -150.01, 251.35, 90.0173, 3.94922E-010, -45.9331, 0.449978, 11.8004, 1.04935E-010, -33.6901
0, 3480.00000, 251.44, -30.0353, 251.798, -150.01, 251.368, 90.0135, 4.39895E-010, -45.3351, 0.44983, 11.7969, 7.83645E-011, -21.8014
0, 3540.00000, 251.406, -30.0174, 251.587, -150.013, 251.436, 89.9986, 3.86174E-010, -42.7094, 1.62063, 11.7921, 9.20344E-011, 18.4349
1, 0.00000, 251.408, -30.0197, 251.595, -150.012, 251.409, 89.9989, 4.27799E-010, -41.5526, 1.62088, 11.796, 7.63976E-011, 0
1, 60.00000, 251.368, -29.9927, 251.542, -150.033, 251.732, 89.9994, 3.98956E-010, -49.9937, 1.62034, 11.7683, 8.00355E-011, 0
1, 120.00000, 251.557, -29.9895, 251.418, -150.015, 251.693, 89.9787, 4.00182E-010, -46.6576, 1.61959, 11.7983, 8.36735E-011, 0
1, 180.00000, 251.579, -29.9852, 251.402, -150.015, 251.73, 89.9762, 4.33611E-010, -43.4702, 1.61958, 11.7922, 1.02446E-010, -16.5044
1, 240.00000, 251.622, -29.9668, 251.22, -150.017, 251.832, 89.9595, 4.08074E-010, -42.6516, 1.61823, 11.7908, 8.00355E-011, 0
1, 300.00000, 251.622, -29.9819, 251.297, -150.009, 251.692, 89.9653, 4.05406E-010, -43, 1.61908, 11.8003, 7.83645E-011, -21.8014
1, 360.00000, 251.615, -29.9736, 251.269, -150.014, 251.778, 89.9632, 4.58822E-010, -39.3693, 1.61871, 11.7916, 8.36735E-011, 0
1, 420.00000, 251.597, -29.9661, 251.242, -150.021, 251.869, 89.9624, 4.42579E-010, -43.6678, 1.61853, 11.7848, 7.27596E-011, 0
1, 480.00000, 251.706, -29.9657, 251.189, -150.011, 251.842, 89.952, 4.60474E-010, -45.3201, 1.61818, 11.8001, 7.16599E-011, -23.9625
1, 540.00000, 251.794, -29.9719, 251.218, -150.001, 251.805, 89.9487, 4.14171E-010, -44.6441, 1.61848, 11.8072, 1.04935E-010, -33.6901
1, 600.00000, 251.897, -29.981, 251.28, -149.991, 251.758, 89.9474, 4.06738E-010, -42.8253, 1.61891, 11.8184, 8.73115E-011, 0
1, 660.00000, 251.889, -29.9756, 251.268, -149.994, 251.803, 89.9477, 3.87543E-010, -39.6678, 1.61873, 11.8121, 9.54926E-011, -17.7447
1, 720.00000, 251.854, -29.9826, 251.376, -149.997, 251.794, 89.9581, 4.36557E-010, -36.8699, 1.61955, 11.8087, 8.85906E-011, -19.179
1, 780.00000, 251.903, -29.9875, 251.335, -149.988, 251.698, 89.9517, 4.44165E-010, -47.4896, 1.61917, 11.8221, 9.82254E-011, 0
1, 840.00000, 251.87, -29.9853, 251.332, -149.992, 251.727, 89.9535, 4.22382E-010, -47.7927, 1.61916, 11.8132, 9.89637E-011, -17.1027
1, 900.00000, 251.87, -29.9853, 251.332, -149.993, 251.727, 89.9535, 4.56798E-010, -51.3046, 1.61917, 11.8148, 7.49989E-011, -22.8337
1, 960.00000, 251.843, -30.0065, 251.497, -149.987, 251.579, 89.9694, 4.66914E-010, -44.5265, 1.62043, 11.8211, 6.54836E-011, 0
1, 1020.00000, 251.809, -30.007, 251.566, -149.993, 251.623, 89.9753, 4.52866E-010, -43.698, 1.14867, 11.8119, 8.17534E-011, -20.8545
1, 1080.00000, 251.811, -29.9892, 251.346, -149.995, 251.686, 89.9577, 4.30947E-010, -38.6598, 1.14737, 11.812, 8.36735E-011, 0
1, 1140.00000, 251.723, -29.9972, 251.477, -150.003, 251.689, 89.9728, 4.33885E-010, -47.5486, 0.449447, 11.7911, 1.02446E-010, 16.5044
1, 1200.00000, 251.68, -29.9964, 251.48, -150.007, 251.703, 89.9756, 4.14235E-010, -46.0675, 0.449334, 11.792, 7.16599E-011, -23.9625
1, 1260.00000, 251.65, -29.9966, 251.482, -150.01, 251.712, 89.9773, 4.67537E-010, -42.0038, 0.449336, 11.7917, 1.01928E-010, -34.8245
1, 1320.00000, 251.531, -30.0019, 251.597, -150.02, 251.729, 89.9929, 4.32725E-010, -39.7131, 0.449678, 11.7675, 7.27596E-011, 0
1, 1380.00000, 251.55, -30.0023, 251.596, -150.018, 251.723, 89.9917, 3.42917E-010, -41.1287, 0.449535, 11.7895, 8.73115E-011, 0
1, 1440.00000, 251.499, -30.008, 251.693, -150.023, 251.722, 90.0022, 4.38795E-010, -40.2921, 0.449833, 11.7758, 9.54926E-011, -17.7447
1, 1500.00000, 251.525, -30.0034, 251.639, -150.023, 251.733, 89.9975, 4.35662E-010, -48.7241, 0.449516, 11.7846, 8.73115E-011, 0
1, 1560.00000, 251.362, -29.998, 251.656, -150.038, 251.787, 90.0083, 4.60474E-010, -45.3201, 0.449692, 11.7516, 7.83645E-011, 21.8014
1, 1620.00000, 251.408, -29.9925, 251.604, -150.038, 251.825, 90.0025, 4.27876E-010, -37.7468, 0.449458, 11.7705, 7.63976E-011, 0
1, 1680.00000, 251.3, -29.9894, 251.614, -150.048, 251.861, 90.0097, 4.15956E-010, -50.3228, 0.449574, 11.7467, 1.05501E-010, 0
1, 1740.00000, 251.203, -29.9855, 251.594, -150.059, 251.896, 90.014, 4.08074E-010, -42.6516, 0.4495, 11.7331, 1.01928E-010, -34.8245
1, 1800.00000, 251.203, -29.9855, 251.594, -150.059, 251.896, 90.014, 4.26067E-010, -47.2491, 0.449532, 11.7465, 8.73115E-011, 0
1, 1860.00000, 251.016, -29.9768, 251.599, -150.079, 251.991, 90.0256, 4.02486E-010, -49.3987, 0.449523, 11.7053, 1.11063E-010, -31.6075
1, 1920.00000, 250.945, -29.9732, 251.598, -150.087, 252.037, 90.0297, 4.15467E-010, -44.4679, 0.449524, 11.7066, 7.27596E-011, 0
1, 1980.00000, 250.945, -29.9732, 251.597, -150.087, 252.037, 90.0297, 4.45634E-010, -42.022, 0.449539, 11.7185, 8.85906E-011, -19.179
1, 2040.00000, 250.976, -29.974, 251.595, -150.084, 252.027, 90.0277, 4.39955E-010, -43.9949, 0.449532, 11.7251, 9.03655E-011, -40.1009
1, 2100.00000, 250.955, -29.9797, 251.668, -150.085, 252.008, 90.0348, 4.15499E-010, -45.8869, 0.449783, 11.719, 7.49989E-011, -22.8337
1, 2160.00000, 250.985, -29.9801, 251.666, -150.082, 251.998, 90.033, 4.37587E-010, -42.9786, 0.449659, 11.7279, 8.73115E-011, 0
1, 2220.00000, 250.989, -29.9653, 251.463, -150.082, 252.036, 90.0169, 4.58389E-010, -37.0973, 1.29313, 11.7256, 7.16599E-011, -23.9625
1, 2280.00000, 250.942, -29.9635, 251.586, -150.093, 252.153, 90.0276, 4.01432E-010, -43.5312, 1.29405, 11.7098, 8.73115E-011, 0
1, 2340.00000, 250.893, -29.9555, 251.584, -150.102, 252.248, 90.0302, 4.25756E-010, -44.4807, 1.29391, 11.7017, 7.83645E-011, -21.8014
1, 2400.00000, 250.812, -29.9592, 251.675, -150.109, 252.267, 90.0423, 4.12879E-010, -44.8215, 1.29451, 11.694, 9.60454E-011, -37.3039
1, 2460.00000, 250.926, -29.9617, 251.666, -150.098, 252.23, 90.035, 4.19379E-010, -43.9456, 1.29436, 11.7135, 1.04935E-010, -33.6901
1, 2520.00000, 251.013, -29.9782, 251.711, -150.081, 252.045, 90.033, 4.44165E-010, -47.4896, 1.29471, 11.7325, 1.11063E-010, -31.6075
1, 2580.00000, 250.992, -29.9725, 251.716, -150.087, 252.121, 90.0336, 4.09091E-010, -43.9191, 1.29462, 11.7179, 8.00355E-011, 0
1, 2640.00000, 251.036, -29.9741, 251.712, -150.083, 252.107, 90.0306, 4.27056E-010, -44.3097, 1.2946, 11.7265, 8.85906E-011, 19.179
1, 2700.00000, 251.03, -29.974, 251.712, -150.083, 252.109, 90.031, 4.17528E-010, -41.4677, 1.2946, 11.7233, 9.45874E-011, 0
1, 2760.00000, 251.031, -29.9772, 251.713, -150.082, 252.067, 90.0307, 4.02589E-010, -44.8169, 1.29463, 11.7262, 7.83645E-011, -21.8014
1, 2820.00000, 251.136, -29.9796, 251.704, -150.072, 252.033, 90.024, 4.45218E-010, -43.3445, 1.29456, 11.7398, 7.49989E-011, -22.8337
1, 2880.00000, 251.258, -29.9932, 251.814, -150.059, 251.969, 90.0252, 4.08463E-010, -48.43, 1.29525, 11.7506, 8.36735E-011, 0
1, 2940.00000, 251.414, -29.9932, 251.808, -150.046, 251.984, 90.0153, 4.18356E-010, -42.7094, 1.29507, 11.764, 9.31777E-011, -38.6598
1, 3000.00000, 251.601, -29.9979, 251.792, -150.028, 251.924, 90.0032, 4.37409E-010, -40.4462, 1.29501, 11.786, 1.07981E-010, -32.6192
1, 3060.00000, 251.546, -29.9987, 251.825, -150.032, 251.937, 90.0085, 4.0521E-010, -45.9094, 1.29523, 11.7725, 8.36735E-011, 0
1, 3120.00000, 251.558, -29.999, 251.824, -150.031, 251.933, 90.0077, 4.41265E-010, -43.8309, 1.29518, 11.7765, 8.00355E-011, 0
1, 3180.00000, 251.532, -29.999, 251.825, -150.033, 251.941, 90.0092, 3.97789E-010, -50.1944, 1.29519, 11.7726, 9.09495E-011, 0
1, 3240.00000, 251.584, -29.9999, 251.821, -150.028, 251.925, 90.006, 4.52866E-010, -46.302, 1.29516, 11.7812, 9.89637E-011, -17.1027
1, 3300.00000, 251.6, -29.9967, 251.771, -150.027, 251.929, 90.0012, 4.39955E-010, -43.9949, 1.29485, 11.7805, 8.17534E-011, -20.8545
1, 3360.00000, 251.6, -29.997, 251.772, -150.027, 251.926, 90.0012, 4.24647E-010, -43.2643, 1.29492, 11.7802, 8.51629E-011, -19.9831
1, 3420.00000, 251.53, -30.002, 251.845, -150.031, 251.896, 90.0107, 4.51553E-010, -43.8575, 1.29541, 11.7738, 8.17534E-011, -20.8545
1, 3480.00000, 251.565, -29.9965, 251.824, -150.031, 251.941, 90.0069, 4.19946E-010, -48.1604, 1.29514, 11.7763, 9.82254E-011, 0
1, 3540.00000, 251.504, -29.9981, 251.875, -150.038, 251.952, 90.0146, 4.6889E-010, -41.855, 0.450066, 11.7617, 8.73115E-011, 0
2, 0.00000, 251.529, -29.9945, 251.805, -150.035, 251.947, 90.0081, 4.45099E-010, -45.9935, 0.449827, 11.7748, 1.07981E-010, -32.6192
2, 60.00000, 251.773, -30.0057, 251.804, -150.008, 251.811, 89.9941, 4.02687E-010, -46.2812, 0.449936, 11.8329, 9.54926E-011, -17.7447
2, 120.00000, 251.779, -29.9964, 251.743, -150.013, 251.89, 89.9898, 4.50243E-010, -44.0179, 0.449675, 11.789, 1.26076E-010, -43.8309
2, 180.00000, 251.682, -29.995, 251.75, -150.022, 251.921, 89.9958, 4.23731E-010, -42.0421, 0.449821, 11.7693, 8.49295E-011, -43.2643
2, 240.00000, 251.575, -29.9929, 251.773, -150.031, 251.954, 90.0037, 4.37345E-010, -44.326, 0.449879, 11.7621, 9.45874E-011, 0
2, 300.00000, 251.574, -29.9929, 251.773, -150.031, 251.954, 90.0037, 4.59225E-010, -44.1976, 0.449852, 11.7743, 8.49295E-011, -43.2643
2, 360.00000, 251.582, -30.0013, 251.801, -150.026, 251.865, 90.0056, 4.30947E-010, -38.6598, 0.449977, 11.7862, 9.03655E-011, -40.1009
2, 420.00000, 251.582, -30.0013, 251.801, -150.026, 251.865, 90.0056, 4.54562E-010, -42.2428, 0.449903, 11.78, 7.83645E-011, -21.8014
2, 480.00000, 251.582, -30.0013, 251.801, -150.026, 251.865, 90.0056, 4.27304E-010, -47.07, 0.449903, 11.78, 7.83645E-011, -21.8014
2, 540.00000, 251.594, -30.0145, 251.846, -150.017, 251.729, 90.0098, 3.97461E-010, -45.5563, 0.450068, 11.7961, 9.09495E-011, 0
2, 600.00000, 251.656, -30.0019, 251.652, -150.011, 251.746, 89.9912, 3.859E-010, -45.7639, 1.14879, 11.7988, 9.82254E-011, 0
2, 660.00000, 251.837, -30.0134, 251.666, -149.989, 251.604, 89.9823, 4.23168E-010, -44.8258, 1.14911, 11.8278, 8.85906E-011, -19.179
2, 720.00000, 251.801, -30.0115, 251.628, -149.992, 251.601, 89.9813, 4.57923E-010, -45.6437, 1.14884, 11.8132, 7.27596E-011, 0
2, 780.00000, 251.788, -30.0187, 251.691, -149.991, 251.553, 89.9865, 4.47634E-010, -44.3415, 1.14927, 11.8163, 1.04935E-010, -33.6901
2, 840.00000, 251.729, -30.015, 251.657, -149.997, 251.578, 89.9874, 4.45218E-010, -43.3445, 1.14896, 11.8063, 8.17534E-011, -20.8545
2, 900.00000, 251.602, -30.0108, 251.668, -150.009, 251.619, 89.9959, 4.3355E-010, -46.1899, 1.14907, 11.7931, 9.89637E-011, -17.1027
2, 960.00000, 251.602, -30.0108, 251.668, -150.009, 251.619, 89.9959, 4.45634E-010, -42.022, 1.14907, 11.7974, 9.31777E-011, -38.6598
2, 1020.00000, 251.666, -30.0124, 251.663, -150.003, 251.598, 89.9917, 4.43535E-010, -41.0091, 1.14904, 11.8064, 7.16599E-011, -23.9625
2, 1080.00000, 251.642, -30.0172, 251.737, -150.005, 251.592, 89.9989, 4.00182E-010, -46.6576, 1.14946, 11.8004, 8.85906E-011, -19.179
2, 1140.00000, 251.648, -30.0112, 251.693, -150.008, 251.638, 89.9952, 4.37409E-010, -40.4462, 1.14911, 11.7986, 8.73115E-011, 0
2, 1200.00000, 251.639, -30.0016, 251.661, -150.014, 251.74, 89.9931, 4.10886E-010, -48.0505, 1.14896, 11.7901, 8.00355E-011, 0
2, 1260.00000, 251.643, -30.0095, 251.765, -150.013, 251.718, 90.0011, 4.14793E-010, -37.875, 1.14962, 11.7936, 9.60454E-011, -37.3039
2, 1320.00000, 251.575, -30.0093, 251.785, -150.02, 251.736, 90.0066, 4.38071E-010, -41.6335, 1.14963, 11.7822, 8.85906E-011, -19.179
2, 1380.00000, 251.583, -30.0178, 251.814, -150.015, 251.648, 90.0088, 4.38071E-010, -41.6335, 1.1498, 11.7941, 9.20344E-011, -18.4349
2, 1440.00000, 251.576, -30.0114, 251.727, -150.016, 251.667, 90.0023, 4.24647E-010, -43.2643, 1.14923, 11.7906, 8.00355E-011, 0
2, 1500.00000, 251.656, -30.0077, 251.653, -150.009, 251.654, 89.9923, 4.23606E-010, -47.6105, 1.1489, 11.8019, 9.45874E-011, 0
2, 1560.00000, 251.78, -30.0059, 251.57, -149.998, 251.628, 89.9785, 4.81108E-010, -44.0809, 1.14853, 11.8145, 6.91216E-011, 0
2, 1620.00000, 251.815, -29.9926, 251.403, -149.997, 251.688, 89.9638, 3.91011E-010, -45, 1.14766, 11.8106, 1.02446E-010, -16.5044
2, 1680.00000, 251.622, -29.9904, 251.433, -150.013, 251.71, 89.9771, 4.63053E-010, -38.941, 1.14804, 11.7871, 9.89637E-011, -17.1027
2, 1740.00000, 251.784, -29.9942, 251.346, -149.995, 251.615, 89.9607, 4.35115E-010, -47.3718, 1.14753, 11.8191, 1.42625E-010, -37.7468
2, 1800.00000, 251.741, -30.0006, 251.466, -150.001, 251.627, 89.9729, 4.49993E-010, -39.0939, 0.449404, 11.7982, 8.36735E-011, 0
